
T1990 000:037 SEGGER J-Link V4.76e Log File (0001ms, 0036ms total)
T1990 000:037 DLL Compiled: Sep 20 2013 16:06:28 (0001ms, 0036ms total)
T1990 000:037 Logging started @ 2013-10-28 09:56 (0001ms, 0036ms total)
T1990 000:038 JLINK_SetWarnOutHandler(...) (0000ms, 0036ms total)
T1990 000:038 JLINK_OpenEx(...)
Firmware: J-Link ARM V8 compiled Jul 17 2013 11:24:15
Hardware: V8.00
S/N: 1
Feature(s): RDI,FlashDL,FlashBP,JFlash,GDBFull  returns O.K. (0016ms, 0052ms total)
T1990 000:054 JLINK_SetErrorOutHandler(...) (0000ms, 0052ms total)
T1990 000:054 JLINK_ExecCommand("ProjectFile = "D:\zlz\校验台改造\program\Bootloader\boot_loader\JLinkSettings.ini"", ...)  returns 0x00 (0000ms, 0052ms total)
T1990 000:054 JLINK_ExecCommand("Device = LM3S2139", ...)
                JLINK_AddMirrorAreaEx(Addr = 0x00000000, Size = 0x00000000) (0000ms, 0000ms total)
              Device "LM3S2139" selected (64 KB flash, 16 KB RAM).  returns 0x00 (0000ms, 0052ms total)
T1990 000:054 JLINK_ExecCommand("DisableConnectionTimeout", ...)  returns 0x01 (0000ms, 0052ms total)
T1990 000:054 JLINK_GetHardwareVersion()  returns 0x13880 (0000ms, 0052ms total)
T1990 000:054 JLINK_GetDLLVersion()  returns 47605 (0000ms, 0052ms total)
T1990 000:054 JLINK_GetFirmwareString(...) (0000ms, 0052ms total)
T1990 000:055 JLINK_GetDLLVersion()  returns 47605 (0000ms, 0052ms total)
T1990 000:055 JLINK_GetCompileDateTime() (0000ms, 0052ms total)
T1990 000:055 JLINK_GetFirmwareString(...) (0000ms, 0052ms total)
T1990 000:055 JLINK_GetHardwareVersion()  returns 0x13880 (0000ms, 0052ms total)
T1990 000:055 JLINK_TIF_Select(JLINKARM_TIF_SWD)  returns 0x00 (0000ms, 0052ms total)
T1990 000:055 JLINK_SetSpeed(2000) (0001ms, 0053ms total)
T1990 000:056 JLINK_GetId() >0x108 TIF>Found SWD-DP with ID 0x1BA01477 >0x0D TIF> >0x21 TIF> >0x0D TIF> >0x28 TIF> >0x0D TIF> >0x28 TIF> >0x0D TIF> >0x21 TIF> >0x0D TIF> >0x28 TIF> >0x0D TIF> >0x21 TIF> >0x0D TIF> >0x21 TIF> >0x0D TIF> >0x21 TIF> >0x0D TIF> >0x21 TIF> >0x0D TIF> >0x28 TIF> >0x0D TIF> >0x28 TIF> >0x0D TIF> >0x21 TIF> >0x0D TIF> >0x28 TIF> >0x0D TIF> >0x28 TIF> >0x0D TIF> >0x28 TIF> >0x0D TIF> >0x21 TIF> >0x0D TIF> >0x21 TIF> >0x0D TIF> >0x28 TIF> >0x0D TIF> >0x21 TIF> >0x0D TIF>
 >0x21 TIF>Found Cortex-M3 r1p1, Little endian. -- CPU_WriteMem(4 bytes @ 0xE0002000) -- CPU_ReadMem(4 bytes @ 0xE000EDF0) -- CPU_ReadMem(4 bytes @ 0xE0002000)FPUnit: 6 code (BP) slots and 2 literal slots -- CPU_ReadMem(4 bytes @ 0xE000EDFC) -- CPU_ReadMem(4 bytes @ 0xE0001000) -- CPU_WriteMem(4 bytes @ 0xE0001000) -- CPU_ReadMem(4 bytes @ 0xE00FF010)TPIU fitted. -- CPU_ReadMem(4 bytes @ 0xE00FF014) -- CPU_ReadMem(4 bytes @ 0xE00FF018) >0x0D TIF> >0x21 TIF>  returns 0x1BA01477 (0043ms, 0096ms total)
T1990 000:099 JLINK_GetDeviceFamily()  returns 3 (0000ms, 0096ms total)
T1990 000:099 JLINK_ReadMem (0xE00FFFF0, 0x0010 Bytes, ...) -- CPU is running -- CPU_ReadMem(16 bytes @ 0xE00FFFF0) -- Data:  0D 00 00 00 10 00 00 00 05 00 00 00 B1 00 00 00  returns 0x00 (0001ms, 0097ms total)
T1990 000:100 JLINK_ReadMem (0xE00FFFD0, 0x0020 Bytes, ...) -- CPU is running -- CPU_ReadMem(32 bytes @ 0xE00FFFD0) -- Data:  00 00 00 00 00 00 00 00 00 00 00 00 00 00 00 00 ...  returns 0x00 (0001ms, 0098ms total)
T1990 000:101 JLINK_ReadMem (0xE00FF000, 0x0018 Bytes, ...) -- CPU is running -- CPU_ReadMem(24 bytes @ 0xE00FF000) -- Data:  03 F0 F0 FF 03 20 F0 FF 03 30 F0 FF 03 10 F0 FF ...  returns 0x00 (0002ms, 0100ms total)
T1990 000:103 JLINK_ReadMemU32(0xE000ED00, 0x0001 Items, ...) -- CPU is running -- CPU_ReadMem(4 bytes @ 0xE000ED00) -- Data:  31 C2 1F 41  returns 0x01 (0001ms, 0101ms total)
T1990 000:104 JLINK_SetResetType(JLINKARM_RESET_TYPE_NORMAL)  returns JLINKARM_RESET_TYPE_NORMAL (0000ms, 0101ms total)
T1990 000:104 JLINK_Reset() -- CPU is running -- CPU_WriteMem(4 bytes @ 0xE000EDF0) -- CPU is running -- CPU_WriteMem(4 bytes @ 0xE000EDFC) >0x35 TIF> -- CPU is running -- CPU_WriteMem(4 bytes @ 0xE000ED0C) -- CPU is running -- CPU_ReadMem(4 bytes @ 0xE000EDF0) -- CPU is running -- CPU_ReadMem(4 bytes @ 0xE000EDF0) -- CPU is running -- CPU_WriteMem(4 bytes @ 0xE000EDF0) -- CPU is running -- CPU_WriteMem(4 bytes @ 0xE000EDFC) -- CPU is running -- CPU_ReadMem(4 bytes @ 0xE000EDF0)
 -- CPU_WriteMem(4 bytes @ 0xE0002000) (0023ms, 0124ms total)
T1990 000:127 JLINK_ReadReg(R15 (PC))  returns 0x00000050 (0000ms, 0124ms total)
T1990 000:127 JLINK_ReadReg(XPSR)  returns 0x01000000 (0000ms, 0124ms total)
T1990 000:127 JLINK_Halt()  returns 0x00 (0000ms, 0124ms total)
T1990 000:127 JLINK_IsHalted() -- MA0 is in flash -- Unmirror addr 0x00000050  returns TRUE (0000ms, 0124ms total)
T1990 000:127 JLINK_ReadMemU32(0xE000EDF0, 0x0001 Items, ...) -- CPU_ReadMem(4 bytes @ 0xE000EDF0) -- Data:  03 00 03 00  returns 0x01 (0002ms, 0126ms total)
T1990 000:129 JLINK_WriteU32(0xE000EDF0, 0xA05F0003) -- CPU_WriteMem(4 bytes @ 0xE000EDF0) -- Invalidate MA0 status  returns 0x00 (0001ms, 0127ms total)
T1990 000:130 JLINK_WriteU32(0xE000EDFC, 0x01000000) -- CPU_WriteMem(4 bytes @ 0xE000EDFC)  returns 0x00 (0001ms, 0128ms total)
T1990 000:131 JLINK_GetHWStatus(...)  returns 0x00 (0001ms, 0129ms total)
T1990 000:132 JLINK_GetNumBPUnits(Type = 0xFFFFFF00)  returns 0x06 (0000ms, 0129ms total)
T1990 000:132 JLINK_GetNumBPUnits(Type = 0xF0)  returns 0x2000 (0000ms, 0129ms total)
T1990 000:132 JLINK_GetNumWPUnits()  returns 0x04 (0000ms, 0129ms total)
T1990 000:132 JLINK_GetSpeed()  returns 0x7D0 (0000ms, 0129ms total)
T1990 000:132 JLINK_ReadMemU32(0xE000E004, 0x0001 Items, ...) -- CPU_ReadMem(4 bytes @ 0xE000E004) -- Data:  01 00 00 00  returns 0x01 (0001ms, 0130ms total)
T1990 000:133 JLINK_ReadMemU32(0xE000E004, 0x0001 Items, ...) -- CPU_ReadMem(4 bytes @ 0xE000E004) -- Data:  01 00 00 00  returns 0x01 (0001ms, 0131ms total)
T1990 000:134 JLINK_WriteMem(0xE0001000, 0x001C Bytes, ...) -- Data:  01 00 00 00 00 00 00 00 00 00 00 00 00 00 00 00 ... -- CPU_WriteMem(28 bytes @ 0xE0001000)  returns 0x1C (0001ms, 0132ms total)
T1990 000:135 JLINK_ReadMem (0xE0001000, 0x001C Bytes, ...) -- CPU_ReadMem(28 bytes @ 0xE0001000) -- Data:  01 00 00 40 00 00 00 00 00 00 00 00 00 00 00 00 ...  returns 0x00 (0002ms, 0134ms total)
T1990 000:137 JLINK_ReadMemU32(0x400FE000, 0x0001 Items, ...) -- CPU_ReadMem(4 bytes @ 0x400FE000) -- Data:  02 00 01 10  returns 0x01 (0001ms, 0135ms total)
T1990 000:138 JLINK_ReadReg(R15 (PC))  returns 0x00000050 (0000ms, 0135ms total)
T1990 000:138 JLINK_ReadReg(XPSR)  returns 0x01000000 (0000ms, 0135ms total)
T1990 000:149 JLINK_WriteMem(0x00000000, 0x0A58 Bytes, ...) -- Data:  A0 0B 00 20 51 00 00 00 31 01 00 20 33 01 00 20 ... -- MA0 is in flash  returns 0xA58 (0000ms, 0135ms total)
T1990 000:203 JLINK_SetResetType(JLINKARM_RESET_TYPE_NORMAL)  returns JLINKARM_RESET_TYPE_NORMAL (0001ms, 0136ms total)
T1990 000:204 JLINK_Reset() -- -------------------------------------- -- Start of determining dirty areas -- End of determining dirty areas -- Start of preparing flash programming -- Calculating RAM usage -- RAM usage = 2252 Bytes -- Preserving registers -- Preparing memory -- Determining CPU clock frequency -- CPU clock frequency: 14638 kHz -- CPU frequency = 14638 kHz -- Preparing target -- Downloading RAMCode -- Using alternate TurboMode RAMCode -- Checking target RAM -- Preparing RAMCode
 -- End of preparing flash programming -- CPU is running at 14638 kHz. -- Start of comparing flash -- CRC check was estimated as fastest method -- Comparing range 0x0000 - 0x0BFF (3 Sectors, 3 KB), using multi-block CRC calculation -- All CRCs match -- End of comparing flash -- Start of erasing sectors -- End of erasing sectors -- Start of flash programming -- End of flash programming -- Flash programming was not necessary -- Flash programming was not necessary -- Start of verifying flash
 -- End of verifying flash -- Start of restoring -- Restore RAMCode -- Restore content of target memory -- Restore target -- Restore memory -- Restore content of registers -- End of restoring -- Total time needed: 0.115s (Prepare: 0.102s, Compare: 0.004s, Erase: 0.000s, Program: 0.000s, Verify: 0.000s, Restore: 0.008s) -- CPU_WriteMem(4 bytes @ 0xE000EDF0) -- CPU_WriteMem(4 bytes @ 0xE000EDFC) >0x35 TIF> -- CPU_WriteMem(4 bytes @ 0xE000ED0C) -- CPU_ReadMem(4 bytes @ 0xE000EDF0)
 -- CPU_ReadMem(4 bytes @ 0xE000EDF0) -- CPU_WriteMem(4 bytes @ 0xE000EDF0) -- CPU_WriteMem(4 bytes @ 0xE000EDFC) -- CPU is running -- CPU_ReadMem(4 bytes @ 0xE000EDF0) -- CPU_WriteMem(4 bytes @ 0xE0002000) (0141ms, 0277ms total)
T1990 000:345 JLINK_ReadReg(R15 (PC))  returns 0x00000050 (0000ms, 0277ms total)
T1990 000:345 JLINK_ReadReg(XPSR)  returns 0x01000000 (0000ms, 0277ms total)
T1990 000:345 JLINK_ReadMem (0x0000004C, 0x003C Bytes, ...) -- MA0 is in flash -- Unmirror addr 0x0000004C -- Read from flash cache (60 bytes @ 0x0000004C) -- Data:  35 01 00 20 4F F0 08 01 49 F6 40 40 01 38 FD D1 ...  returns 0x00 (0000ms, 0277ms total)
T1990 000:888 JLINK_ReadMem (0x00000800, 0x0050 Bytes, ...) -- Unmirror addr 0x00000800 -- Read from flash cache (80 bytes @ 0x00000800) -- Data:  03 D0 D0 F8 00 45 0C 43 02 E0 D0 F8 00 45 8C 43 ...  returns 0x00 (0000ms, 0277ms total)
T1990 001:178 JLINK_ReadMem (0x20000A3C, 0x0001 Bytes, ...) -- CPU_ReadMem(64 bytes @ 0x20000A00) -- Updating C cache (64 bytes @ 0x20000A00) -- Read from C cache (1 bytes @ 0x20000A3C) -- Data:  00  returns 0x00 (0002ms, 0279ms total)
T194C 004:851 JLINK_SetBPEx(Addr = 0x00000068, Type = 0xFFFFFFF2) -- Unmirror addr 0x00000068  returns 0x00000001 (0001ms, 0280ms total)
T194C 004:852 JLINK_Go() -- CPU_WriteMem(4 bytes @ 0xE0002000) -- Invalidate MA0 status -- CPU_WriteMem(4 bytes @ 0xE0002008) -- CPU_WriteMem(4 bytes @ 0xE000200C) -- CPU_WriteMem(4 bytes @ 0xE0002010) -- CPU_WriteMem(4 bytes @ 0xE0002014) -- CPU_WriteMem(4 bytes @ 0xE0002018) -- CPU_WriteMem(4 bytes @ 0xE000201C) (0006ms, 0286ms total)
T194C 004:959 JLINK_IsHalted()  returns FALSE (0000ms, 0286ms total)
T194C 005:059 JLINK_IsHalted()  returns FALSE (0001ms, 0287ms total)
T194C 005:161 JLINK_IsHalted()  returns FALSE (0000ms, 0286ms total)
T194C 005:261 JLINK_IsHalted()  returns FALSE (0001ms, 0287ms total)
T194C 005:363 JLINK_ReadMemU32(0xE0001004, 0x0001 Items, ...) -- CPU is running -- CPU_ReadMem(4 bytes @ 0xE0001004) -- Data:  FF 3D 55 00  returns 0x01 (0001ms, 0287ms total)
T1990 005:364 JLINK_ReadMem (0x00000800, 0x0050 Bytes, ...) -- MA0 is in flash -- Unmirror addr 0x00000800 -- Read from flash cache (80 bytes @ 0x00000800) -- Data:  03 D0 D0 F8 00 45 0C 43 02 E0 D0 F8 00 45 8C 43 ...  returns 0x00 (0000ms, 0287ms total)
T1990 005:364 JLINK_ReadMem (0x20000A3C, 0x0001 Bytes, ...) -- CPU is running -- CPU_ReadMem(1 bytes @ 0x20000A3C) -- Data:  00  returns 0x00 (0002ms, 0289ms total)
T194C 005:366 JLINK_IsHalted()  returns FALSE (0001ms, 0290ms total)
T194C 005:467 JLINK_IsHalted()  returns FALSE (0001ms, 0290ms total)
T194C 005:569 JLINK_IsHalted()  returns FALSE (0001ms, 0290ms total)
T194C 005:670 JLINK_IsHalted()  returns FALSE (0001ms, 0290ms total)
T194C 005:772 JLINK_IsHalted()  returns FALSE (0001ms, 0290ms total)
T194C 005:874 JLINK_IsHalted()  returns FALSE (0001ms, 0290ms total)
T194C 005:975 JLINK_ReadMemU32(0xE0001004, 0x0001 Items, ...) -- CPU is running -- CPU_ReadMem(4 bytes @ 0xE0001004) -- Data:  98 BC 3E 01  returns 0x01 (0001ms, 0290ms total)
T1990 005:976 JLINK_ReadMem (0x00000800, 0x0050 Bytes, ...) -- Unmirror addr 0x00000800 -- Read from flash cache (80 bytes @ 0x00000800) -- Data:  03 D0 D0 F8 00 45 0C 43 02 E0 D0 F8 00 45 8C 43 ...  returns 0x00 (0000ms, 0290ms total)
T1990 005:976 JLINK_ReadMem (0x20000A3C, 0x0001 Bytes, ...) -- CPU is running -- CPU_ReadMem(1 bytes @ 0x20000A3C) -- Data:  00  returns 0x00 (0001ms, 0291ms total)
T194C 005:977 JLINK_IsHalted()  returns FALSE (0001ms, 0292ms total)
T194C 006:079 JLINK_IsHalted()  returns FALSE (0000ms, 0291ms total)
T194C 006:179 JLINK_IsHalted()  returns FALSE (0000ms, 0291ms total)
T194C 006:280 JLINK_IsHalted()  returns FALSE (0000ms, 0291ms total)
T194C 006:380 JLINK_IsHalted()  returns FALSE (0001ms, 0292ms total)
T194C 006:482 JLINK_IsHalted()  returns FALSE (0001ms, 0292ms total)
T194C 006:584 JLINK_ReadMemU32(0xE0001004, 0x0001 Items, ...) -- CPU is running -- CPU_ReadMem(4 bytes @ 0xE0001004) -- Data:  43 E2 26 02  returns 0x01 (0000ms, 0291ms total)
T1990 006:584 JLINK_ReadMem (0x00000800, 0x0050 Bytes, ...) -- Unmirror addr 0x00000800 -- Read from flash cache (80 bytes @ 0x00000800) -- Data:  03 D0 D0 F8 00 45 0C 43 02 E0 D0 F8 00 45 8C 43 ...  returns 0x00 (0000ms, 0291ms total)
T1990 006:584 JLINK_ReadMem (0x20000A3C, 0x0001 Bytes, ...) -- CPU is running -- CPU_ReadMem(1 bytes @ 0x20000A3C) -- Data:  00  returns 0x00 (0002ms, 0293ms total)
T194C 006:586 JLINK_IsHalted()  returns FALSE (0001ms, 0294ms total)
T1990 006:598 JLINK_ClrBPEx(BPHandle = 0x00000001) -- CPU is running -- CPU is running -- CPU_WriteMem(4 bytes @ 0xE0002008) -- CPU is running -- CPU_WriteMem(4 bytes @ 0xE000200C) -- CPU is running -- CPU_WriteMem(4 bytes @ 0xE0002010) -- CPU is running -- CPU_WriteMem(4 bytes @ 0xE0002014) -- CPU is running -- CPU_WriteMem(4 bytes @ 0xE0002018) -- CPU is running -- CPU_WriteMem(4 bytes @ 0xE000201C)  returns 0x00 (0007ms, 0300ms total)
T194C 006:688 JLINK_IsHalted()  returns FALSE (0001ms, 0301ms total)
T194C 006:790 JLINK_IsHalted()  returns FALSE (0001ms, 0301ms total)
T194C 006:891 JLINK_IsHalted()  returns FALSE (0001ms, 0301ms total)
T194C 006:993 JLINK_IsHalted()  returns FALSE (0001ms, 0301ms total)
T194C 007:094 JLINK_IsHalted()  returns FALSE (0001ms, 0301ms total)
T194C 007:196 JLINK_ReadMemU32(0xE0001004, 0x0001 Items, ...) -- CPU is running -- CPU_ReadMem(4 bytes @ 0xE0001004) -- Data:  BE 6F 10 03  returns 0x01 (0001ms, 0301ms total)
T1990 007:197 JLINK_ReadMem (0x00000800, 0x0050 Bytes, ...) -- Unmirror addr 0x00000800 -- Read from flash cache (80 bytes @ 0x00000800) -- Data:  03 D0 D0 F8 00 45 0C 43 02 E0 D0 F8 00 45 8C 43 ...  returns 0x00 (0000ms, 0301ms total)
T1990 007:197 JLINK_ReadMem (0x20000A3C, 0x0001 Bytes, ...) -- CPU is running -- CPU_ReadMem(1 bytes @ 0x20000A3C) -- Data:  00  returns 0x00 (0001ms, 0302ms total)
T194C 007:199 JLINK_IsHalted()  returns FALSE (0001ms, 0303ms total)
T194C 007:300 JLINK_IsHalted()  returns FALSE (0000ms, 0302ms total)
T1990 007:363 JLINK_SetBPEx(Addr = 0x00000064, Type = 0xFFFFFFF2) -- CPU is running -- Unmirror addr 0x00000064 -- CPU is running -- CPU_WriteMem(4 bytes @ 0xE0002000) -- CPU is running -- CPU_WriteMem(4 bytes @ 0xE0002008)  returns 0x00000002 (0002ms, 0304ms total)
T194C 007:401 JLINK_IsHalted()  returns FALSE (0000ms, 0304ms total)
T194C 007:501 JLINK_IsHalted()  returns FALSE (0001ms, 0305ms total)
T194C 007:603 JLINK_IsHalted()  returns FALSE (0000ms, 0304ms total)
T194C 007:704 JLINK_IsHalted()  returns FALSE (0000ms, 0304ms total)
T194C 007:804 JLINK_ReadMemU32(0xE0001004, 0x0001 Items, ...) -- CPU is running -- CPU_ReadMem(4 bytes @ 0xE0001004) -- Data:  15 83 F8 03  returns 0x01 (0001ms, 0305ms total)
T1990 007:805 JLINK_ReadMem (0x00000800, 0x0050 Bytes, ...) -- Unmirror addr 0x00000800 -- Read from flash cache (80 bytes @ 0x00000800) -- Data:  03 D0 D0 F8 00 45 0C 43 02 E0 D0 F8 00 45 8C 43 ...  returns 0x00 (0000ms, 0305ms total)
T1990 007:805 JLINK_ReadMem (0x20000A3C, 0x0001 Bytes, ...) -- CPU is running -- CPU_ReadMem(1 bytes @ 0x20000A3C) -- Data:  00  returns 0x00 (0001ms, 0306ms total)
T194C 007:806 JLINK_IsHalted()  returns FALSE (0001ms, 0307ms total)
T194C 007:908 JLINK_IsHalted()  returns FALSE (0001ms, 0307ms total)
T194C 008:009 JLINK_IsHalted()  returns FALSE (0000ms, 0306ms total)
T194C 008:110 JLINK_IsHalted()  returns FALSE (0000ms, 0306ms total)
T194C 008:210 JLINK_IsHalted()  returns FALSE (0000ms, 0306ms total)
T194C 008:311 JLINK_IsHalted()  returns FALSE (0000ms, 0306ms total)
T194C 008:412 JLINK_ReadMemU32(0xE0001004, 0x0001 Items, ...) -- CPU is running -- CPU_ReadMem(4 bytes @ 0xE0001004) -- Data:  C0 32 E0 04  returns 0x01 (0001ms, 0307ms total)
T1990 008:413 JLINK_ReadMem (0x00000800, 0x0050 Bytes, ...) -- Unmirror addr 0x00000800 -- Read from flash cache (80 bytes @ 0x00000800) -- Data:  03 D0 D0 F8 00 45 0C 43 02 E0 D0 F8 00 45 8C 43 ...  returns 0x00 (0000ms, 0307ms total)
T1990 008:413 JLINK_ReadMem (0x20000A3C, 0x0001 Bytes, ...) -- CPU is running -- CPU_ReadMem(1 bytes @ 0x20000A3C) -- Data:  00  returns 0x00 (0001ms, 0308ms total)
T194C 008:414 JLINK_IsHalted()  returns FALSE (0001ms, 0309ms total)
T194C 008:515 JLINK_Halt() -- Invalidate MA0 status -- MA0 is in flash -- Unmirror addr 0x00003EC4 -- Unmirror addr 0x00000064  returns 0x00 (0004ms, 0312ms total)
T194C 008:519 JLINK_IsHalted() -- Unmirror addr 0x00003EC4 -- Unmirror addr 0x00000064  returns TRUE (0000ms, 0312ms total)
T194C 008:519 JLINK_IsHalted() -- Unmirror addr 0x00003EC4 -- Unmirror addr 0x00000064  returns TRUE (0000ms, 0312ms total)
T194C 008:519 JLINK_IsHalted() -- Unmirror addr 0x00003EC4 -- Unmirror addr 0x00000064  returns TRUE (0000ms, 0312ms total)
T194C 008:519 JLINK_ReadReg(R15 (PC))  returns 0x00003EC4 (0000ms, 0312ms total)
T194C 008:519 JLINK_ReadReg(XPSR)  returns 0x81000000 (0000ms, 0312ms total)
T194C 008:519 JLINK_ClrBPEx(BPHandle = 0x00000002)  returns 0x00 (0001ms, 0313ms total)
T194C 008:520 JLINK_ReadMemU32(0xE000ED30, 0x0001 Items, ...) -- CPU_ReadMem(4 bytes @ 0xE000ED30) -- Data:  01 00 00 00  returns 0x01 (0001ms, 0314ms total)
T194C 008:521 JLINK_ReadMemU32(0xE0001028, 0x0001 Items, ...) -- CPU_ReadMem(4 bytes @ 0xE0001028) -- Data:  00 00 00 00  returns 0x01 (0001ms, 0315ms total)
T194C 008:522 JLINK_ReadMemU32(0xE0001038, 0x0001 Items, ...) -- CPU_ReadMem(4 bytes @ 0xE0001038) -- Data:  00 02 00 00  returns 0x01 (0001ms, 0316ms total)
T194C 008:523 JLINK_ReadMemU32(0xE0001048, 0x0001 Items, ...) -- CPU_ReadMem(4 bytes @ 0xE0001048) -- Data:  00 00 00 00  returns 0x01 (0001ms, 0317ms total)
T194C 008:524 JLINK_ReadMemU32(0xE0001058, 0x0001 Items, ...) -- CPU_ReadMem(4 bytes @ 0xE0001058) -- Data:  00 00 00 00  returns 0x01 (0001ms, 0318ms total)
T194C 008:525 JLINK_ReadReg(R0)  returns 0x00000000 (0000ms, 0318ms total)
T194C 008:525 JLINK_ReadReg(R1)  returns 0x0000007C (0000ms, 0318ms total)
T194C 008:525 JLINK_ReadReg(R2)  returns 0x017D7840 (0000ms, 0318ms total)
T194C 008:525 JLINK_ReadReg(R3)  returns 0x441C4000 (0000ms, 0318ms total)
T194C 008:525 JLINK_ReadReg(R4)  returns 0x0000B284 (0000ms, 0318ms total)
T194C 008:525 JLINK_ReadReg(R5)  returns 0x0000B284 (0000ms, 0318ms total)
T194C 008:525 JLINK_ReadReg(R6)  returns 0x200005EC (0000ms, 0318ms total)
T194C 008:525 JLINK_ReadReg(R7)  returns 0x20000161 (0000ms, 0318ms total)
T194C 008:525 JLINK_ReadReg(R8)  returns 0x20000A58 (0000ms, 0318ms total)
T194C 008:525 JLINK_ReadReg(R9)  returns 0x12065A02 (0000ms, 0318ms total)
T194C 008:525 JLINK_ReadReg(R10)  returns 0x04E22870 (0000ms, 0318ms total)
T194C 008:525 JLINK_ReadReg(R11)  returns 0x00000040 (0000ms, 0318ms total)
T194C 008:525 JLINK_ReadReg(R12)  returns 0x0000001F (0000ms, 0318ms total)
T194C 008:525 JLINK_ReadReg(R13 (SP))  returns 0x20002538 (0000ms, 0318ms total)
T194C 008:525 JLINK_ReadReg(R14)  returns 0x000025AF (0000ms, 0318ms total)
T194C 008:525 JLINK_ReadReg(R15 (PC))  returns 0x00003EC4 (0000ms, 0318ms total)
T194C 008:525 JLINK_ReadReg(XPSR)  returns 0x81000000 (0000ms, 0318ms total)
T194C 008:525 JLINK_ReadReg(MSP)  returns 0x20002538 (0001ms, 0319ms total)
T194C 008:526 JLINK_ReadReg(PSP)  returns 0x24C24814 (0000ms, 0319ms total)
T194C 008:526 JLINK_ReadReg(CFBP)  returns 0x00000000 (0000ms, 0319ms total)
T1990 008:526 JLINK_ReadMem (0x20000A3C, 0x0001 Bytes, ...) -- CPU_ReadMem(64 bytes @ 0x20000A00) -- Updating C cache (64 bytes @ 0x20000A00) -- Read from C cache (1 bytes @ 0x20000A3C) -- Data:  00  returns 0x00 (0002ms, 0321ms total)
T1990 008:528 JLINK_ReadMem (0x00000800, 0x0050 Bytes, ...) -- Unmirror addr 0x00000800 -- Read from flash cache (80 bytes @ 0x00000800) -- Data:  03 D0 D0 F8 00 45 0C 43 02 E0 D0 F8 00 45 8C 43 ...  returns 0x00 (0000ms, 0321ms total)
T1990 008:530 JLINK_ReadMem (0x00003EC4, 0x003C Bytes, ...) -- Unmirror addr 0x00003EC4 -- CPU_ReadMem(64 bytes @ 0x00003EC0) -- Updating C cache (64 bytes @ 0x00003EC0) -- Read from C cache (60 bytes @ 0x00003EC4) -- Data:  43 28 5A D1 11 49 80 39 D1 E9 06 01 CD E9 00 01 ...  returns 0x00 (0002ms, 0323ms total)
T1990 009:072 JLINK_SetResetType(JLINKARM_RESET_TYPE_NORMAL)  returns JLINKARM_RESET_TYPE_NORMAL (0000ms, 0323ms total)
T1990 009:072 JLINK_Reset() -- CPU_WriteMem(4 bytes @ 0xE000EDF0) -- CPU_WriteMem(4 bytes @ 0xE000EDFC) >0x35 TIF> -- CPU_WriteMem(4 bytes @ 0xE000ED0C) -- CPU_ReadMem(4 bytes @ 0xE000EDF0) -- CPU_ReadMem(4 bytes @ 0xE000EDF0) -- CPU_WriteMem(4 bytes @ 0xE000EDF0) -- CPU_WriteMem(4 bytes @ 0xE000EDFC) -- CPU is running -- CPU_ReadMem(4 bytes @ 0xE000EDF0) -- CPU_WriteMem(4 bytes @ 0xE0002000) (0024ms, 0347ms total)
T1990 009:096 JLINK_ReadReg(R15 (PC))  returns 0x00000050 (0000ms, 0347ms total)
T1990 009:096 JLINK_ReadReg(XPSR)  returns 0x01000000 (0000ms, 0347ms total)
T1990 009:097 JLINK_ReadMem (0x00000800, 0x0050 Bytes, ...) -- Unmirror addr 0x00000800 -- Read from flash cache (80 bytes @ 0x00000800) -- Data:  03 D0 D0 F8 00 45 0C 43 02 E0 D0 F8 00 45 8C 43 ...  returns 0x00 (0000ms, 0347ms total)
T1990 009:098 JLINK_ReadMem (0x0000004C, 0x003C Bytes, ...) -- Unmirror addr 0x0000004C -- Read from flash cache (60 bytes @ 0x0000004C) -- Data:  35 01 00 20 4F F0 08 01 49 F6 40 40 01 38 FD D1 ...  returns 0x00 (0000ms, 0347ms total)
T1990 009:101 JLINK_ReadMem (0x20000A3C, 0x0001 Bytes, ...) -- CPU_ReadMem(64 bytes @ 0x20000A00) -- Updating C cache (64 bytes @ 0x20000A00) -- Read from C cache (1 bytes @ 0x20000A3C) -- Data:  00  returns 0x00 (0002ms, 0349ms total)
T194C 009:788 JLINK_SetBPEx(Addr = 0x00000064, Type = 0xFFFFFFF2) -- Unmirror addr 0x00000064  returns 0x00000003 (0000ms, 0349ms total)
T194C 009:788 JLINK_Go() -- CPU_WriteMem(4 bytes @ 0xE0002000) -- Invalidate MA0 status -- CPU_WriteMem(4 bytes @ 0xE0002008) -- CPU_WriteMem(4 bytes @ 0xE000200C) -- CPU_WriteMem(4 bytes @ 0xE0002010) -- CPU_WriteMem(4 bytes @ 0xE0002014) -- CPU_WriteMem(4 bytes @ 0xE0002018) -- CPU_WriteMem(4 bytes @ 0xE000201C) (0005ms, 0354ms total)
T194C 009:894 JLINK_IsHalted() -- MA0 is in flash -- Unmirror addr 0x00000064 -- Unmirror addr 0x00000064 -- Unmirror addr 0x00000064 -- Unmirror addr 0x00000064  returns TRUE (0004ms, 0358ms total)
T194C 009:898 JLINK_Halt()  returns 0x00 (0000ms, 0354ms total)
T194C 009:898 JLINK_IsHalted() -- Unmirror addr 0x00000064 -- Unmirror addr 0x00000064  returns TRUE (0000ms, 0354ms total)
T194C 009:898 JLINK_IsHalted() -- Unmirror addr 0x00000064 -- Unmirror addr 0x00000064  returns TRUE (0000ms, 0354ms total)
T194C 009:898 JLINK_IsHalted() -- Unmirror addr 0x00000064 -- Unmirror addr 0x00000064  returns TRUE (0000ms, 0354ms total)
T194C 009:898 JLINK_ReadReg(R15 (PC))  returns 0x00000064 (0001ms, 0355ms total)
T194C 009:899 JLINK_ReadReg(XPSR)  returns 0x61000000 (0000ms, 0355ms total)
T194C 009:899 JLINK_ClrBPEx(BPHandle = 0x00000003)  returns 0x00 (0000ms, 0355ms total)
T194C 009:899 JLINK_ReadMemU32(0xE000ED30, 0x0001 Items, ...) -- CPU_ReadMem(4 bytes @ 0xE000ED30) -- Data:  03 00 00 00  returns 0x01 (0001ms, 0356ms total)
T194C 009:900 JLINK_ReadMemU32(0xE0001028, 0x0001 Items, ...) -- CPU_ReadMem(4 bytes @ 0xE0001028) -- Data:  00 00 00 00  returns 0x01 (0001ms, 0357ms total)
T194C 009:901 JLINK_ReadMemU32(0xE0001038, 0x0001 Items, ...) -- CPU_ReadMem(4 bytes @ 0xE0001038) -- Data:  00 02 00 00  returns 0x01 (0001ms, 0358ms total)
T194C 009:902 JLINK_ReadMemU32(0xE0001048, 0x0001 Items, ...) -- CPU_ReadMem(4 bytes @ 0xE0001048) -- Data:  00 00 00 00  returns 0x01 (0001ms, 0359ms total)
T194C 009:903 JLINK_ReadMemU32(0xE0001058, 0x0001 Items, ...) -- CPU_ReadMem(4 bytes @ 0xE0001058) -- Data:  00 00 00 00  returns 0x01 (0001ms, 0360ms total)
T194C 009:904 JLINK_ReadReg(R0)  returns 0x400FE060 (0000ms, 0360ms total)
T194C 009:904 JLINK_ReadReg(R1)  returns 0x07803B82 (0000ms, 0360ms total)
T194C 009:904 JLINK_ReadReg(R2)  returns 0xFFFBFC0C (0000ms, 0360ms total)
T194C 009:904 JLINK_ReadReg(R3)  returns 0x441C4000 (0000ms, 0360ms total)
T194C 009:904 JLINK_ReadReg(R4)  returns 0x0000B284 (0000ms, 0360ms total)
T194C 009:904 JLINK_ReadReg(R5)  returns 0x0000B284 (0000ms, 0360ms total)
T194C 009:904 JLINK_ReadReg(R6)  returns 0x200005EC (0000ms, 0360ms total)
T194C 009:904 JLINK_ReadReg(R7)  returns 0x20000161 (0000ms, 0360ms total)
T194C 009:904 JLINK_ReadReg(R8)  returns 0x20000A58 (0000ms, 0360ms total)
T194C 009:904 JLINK_ReadReg(R9)  returns 0x12065A02 (0000ms, 0360ms total)
T194C 009:904 JLINK_ReadReg(R10)  returns 0x04E22870 (0000ms, 0360ms total)
T194C 009:904 JLINK_ReadReg(R11)  returns 0x00000040 (0000ms, 0360ms total)
T194C 009:904 JLINK_ReadReg(R12)  returns 0x0000001F (0000ms, 0360ms total)
T194C 009:904 JLINK_ReadReg(R13 (SP))  returns 0x20000BA0 (0000ms, 0360ms total)
T194C 009:904 JLINK_ReadReg(R14)  returns 0x00000065 (0000ms, 0360ms total)
T194C 009:904 JLINK_ReadReg(R15 (PC))  returns 0x00000064 (0000ms, 0360ms total)
T194C 009:904 JLINK_ReadReg(XPSR)  returns 0x61000000 (0000ms, 0360ms total)
T194C 009:904 JLINK_ReadReg(MSP)  returns 0x20000BA0 (0000ms, 0360ms total)
T194C 009:904 JLINK_ReadReg(PSP)  returns 0x24C24814 (0000ms, 0360ms total)
T194C 009:904 JLINK_ReadReg(CFBP)  returns 0x00000000 (0000ms, 0360ms total)
T1990 009:905 JLINK_ReadMem (0x20000A3C, 0x0001 Bytes, ...) -- CPU_ReadMem(64 bytes @ 0x20000A00) -- Updating C cache (64 bytes @ 0x20000A00) -- Read from C cache (1 bytes @ 0x20000A3C) -- Data:  00  returns 0x00 (0001ms, 0361ms total)
T1990 009:907 JLINK_ReadMem (0x00000800, 0x0050 Bytes, ...) -- Unmirror addr 0x00000800 -- Read from flash cache (80 bytes @ 0x00000800) -- Data:  03 D0 D0 F8 00 45 0C 43 02 E0 D0 F8 00 45 8C 43 ...  returns 0x00 (0000ms, 0361ms total)
T1990 009:908 JLINK_ReadMem (0x00000060, 0x003C Bytes, ...) -- Unmirror addr 0x00000060 -- Read from flash cache (60 bytes @ 0x00000060) -- Data:  00 F0 11 F8 00 F0 24 F8 00 F0 74 F8 18 B1 00 F0 ...  returns 0x00 (0000ms, 0361ms total)
T194C 012:349 JLINK_Step() -- Unmirror addr 0x00000064 -- Read from flash cache (2 bytes @ 0x00000064) -- Unmirror addr 0x00000066 -- Read from flash cache (2 bytes @ 0x00000066) -- Simulated  returns 0x00 (0001ms, 0362ms total)
T194C 012:350 JLINK_ReadReg(R15 (PC))  returns 0x000000B0 (0000ms, 0362ms total)
T194C 012:350 JLINK_ReadReg(XPSR)  returns 0x61000000 (0000ms, 0362ms total)
T194C 012:350 JLINK_ReadReg(R0)  returns 0x400FE060 (0000ms, 0362ms total)
T194C 012:350 JLINK_ReadReg(R1)  returns 0x07803B82 (0000ms, 0362ms total)
T194C 012:350 JLINK_ReadReg(R2)  returns 0xFFFBFC0C (0001ms, 0363ms total)
T194C 012:351 JLINK_ReadReg(R3)  returns 0x441C4000 (0000ms, 0363ms total)
T194C 012:351 JLINK_ReadReg(R4)  returns 0x0000B284 (0000ms, 0363ms total)
T194C 012:351 JLINK_ReadReg(R5)  returns 0x0000B284 (0000ms, 0363ms total)
T194C 012:351 JLINK_ReadReg(R6)  returns 0x200005EC (0000ms, 0363ms total)
T194C 012:351 JLINK_ReadReg(R7)  returns 0x20000161 (0000ms, 0363ms total)
T194C 012:351 JLINK_ReadReg(R8)  returns 0x20000A58 (0000ms, 0363ms total)
T194C 012:351 JLINK_ReadReg(R9)  returns 0x12065A02 (0000ms, 0363ms total)
T194C 012:351 JLINK_ReadReg(R10)  returns 0x04E22870 (0000ms, 0363ms total)
T194C 012:351 JLINK_ReadReg(R11)  returns 0x00000040 (0000ms, 0363ms total)
T194C 012:351 JLINK_ReadReg(R12)  returns 0x0000001F (0000ms, 0363ms total)
T194C 012:351 JLINK_ReadReg(R13 (SP))  returns 0x20000BA0 (0000ms, 0363ms total)
T194C 012:351 JLINK_ReadReg(R14)  returns 0x00000069 (0000ms, 0363ms total)
T194C 012:351 JLINK_ReadReg(R15 (PC))  returns 0x000000B0 (0000ms, 0363ms total)
T194C 012:351 JLINK_ReadReg(XPSR)  returns 0x61000000 (0000ms, 0363ms total)
T194C 012:351 JLINK_ReadReg(MSP)  returns 0x20000BA0 (0000ms, 0363ms total)
T194C 012:351 JLINK_ReadReg(PSP)  returns 0x24C24814 (0000ms, 0363ms total)
T194C 012:351 JLINK_ReadReg(CFBP)  returns 0x00000000 (0000ms, 0363ms total)
T1990 012:354 JLINK_ReadMem (0x20000A3C, 0x0001 Bytes, ...) -- Read from C cache (1 bytes @ 0x20000A3C) -- Data:  00  returns 0x00 (0000ms, 0363ms total)
T1990 012:355 JLINK_ReadMem (0x00000800, 0x0050 Bytes, ...) -- Unmirror addr 0x00000800 -- Read from flash cache (80 bytes @ 0x00000800) -- Data:  03 D0 D0 F8 00 45 0C 43 02 E0 D0 F8 00 45 8C 43 ...  returns 0x00 (0000ms, 0363ms total)
T1990 012:357 JLINK_ReadMem (0x000000AE, 0x0002 Bytes, ...) -- Unmirror addr 0x000000AE -- Read from flash cache (2 bytes @ 0x000000AE) -- Data:  70 47  returns 0x00 (0000ms, 0363ms total)
T1990 012:357 JLINK_ReadMem (0x000000B0, 0x003C Bytes, ...) -- Unmirror addr 0x000000B0 -- Read from flash cache (60 bytes @ 0x000000B0) -- Data:  EF F3 10 80 72 B6 00 22 00 23 4F F0 00 50 50 F8 ...  returns 0x00 (0000ms, 0363ms total)
T194C 015:467 JLINK_SetBPEx(Addr = 0x00000110, Type = 0xFFFFFFF2) -- Unmirror addr 0x00000110  returns 0x00000004 (0000ms, 0363ms total)
T194C 015:467 JLINK_Go() -- CPU_WriteMem(4 bytes @ 0xE0002000) -- Invalidate MA0 status -- CPU_WriteMem(4 bytes @ 0xE0002008) (0006ms, 0369ms total)
T194C 015:574 JLINK_IsHalted() -- MA0 is in flash -- Unmirror addr 0x00000110 -- Unmirror addr 0x00000110 -- Unmirror addr 0x00000110 -- Unmirror addr 0x00000110  returns TRUE (0004ms, 0373ms total)
T194C 015:578 JLINK_Halt()  returns 0x00 (0000ms, 0369ms total)
T194C 015:579 JLINK_IsHalted() -- Unmirror addr 0x00000110 -- Unmirror addr 0x00000110  returns TRUE (0000ms, 0370ms total)
T194C 015:579 JLINK_IsHalted() -- Unmirror addr 0x00000110 -- Unmirror addr 0x00000110  returns TRUE (0000ms, 0370ms total)
T194C 015:579 JLINK_IsHalted() -- Unmirror addr 0x00000110 -- Unmirror addr 0x00000110  returns TRUE (0000ms, 0370ms total)
T194C 015:579 JLINK_ReadReg(R15 (PC))  returns 0x00000110 (0000ms, 0370ms total)
T194C 015:579 JLINK_ReadReg(XPSR)  returns 0x21000000 (0000ms, 0370ms total)
T194C 015:579 JLINK_ClrBPEx(BPHandle = 0x00000004)  returns 0x00 (0000ms, 0370ms total)
T194C 015:579 JLINK_ReadMemU32(0xE000ED30, 0x0001 Items, ...) -- CPU_ReadMem(4 bytes @ 0xE000ED30) -- Data:  03 00 00 00  returns 0x01 (0001ms, 0371ms total)
T194C 015:580 JLINK_ReadMemU32(0xE0001028, 0x0001 Items, ...) -- CPU_ReadMem(4 bytes @ 0xE0001028) -- Data:  00 00 00 00  returns 0x01 (0001ms, 0372ms total)
T194C 015:581 JLINK_ReadMemU32(0xE0001038, 0x0001 Items, ...) -- CPU_ReadMem(4 bytes @ 0xE0001038) -- Data:  00 02 00 00  returns 0x01 (0001ms, 0373ms total)
T194C 015:582 JLINK_ReadMemU32(0xE0001048, 0x0001 Items, ...) -- CPU_ReadMem(4 bytes @ 0xE0001048) -- Data:  00 00 00 00  returns 0x01 (0001ms, 0374ms total)
T194C 015:583 JLINK_ReadMemU32(0xE0001058, 0x0001 Items, ...) -- CPU_ReadMem(4 bytes @ 0xE0001058) -- Data:  00 00 00 00  returns 0x01 (0001ms, 0375ms total)
T194C 015:584 JLINK_ReadReg(R0)  returns 0x00000001 (0000ms, 0375ms total)
T194C 015:584 JLINK_ReadReg(R1)  returns 0x20000000 (0000ms, 0375ms total)
T194C 015:584 JLINK_ReadReg(R2)  returns 0x20000A58 (0000ms, 0375ms total)
T194C 015:584 JLINK_ReadReg(R3)  returns 0x00000000 (0000ms, 0375ms total)
T194C 015:584 JLINK_ReadReg(R4)  returns 0x0000B284 (0000ms, 0375ms total)
T194C 015:584 JLINK_ReadReg(R5)  returns 0x0000B284 (0000ms, 0375ms total)
T194C 015:584 JLINK_ReadReg(R6)  returns 0x200005EC (0000ms, 0375ms total)
T194C 015:584 JLINK_ReadReg(R7)  returns 0x20000161 (0000ms, 0375ms total)
T194C 015:584 JLINK_ReadReg(R8)  returns 0x20000A58 (0000ms, 0375ms total)
T194C 015:584 JLINK_ReadReg(R9)  returns 0x12065A02 (0000ms, 0375ms total)
T194C 015:584 JLINK_ReadReg(R10)  returns 0x04E22870 (0000ms, 0375ms total)
T194C 015:584 JLINK_ReadReg(R11)  returns 0x00000040 (0000ms, 0375ms total)
T194C 015:584 JLINK_ReadReg(R12)  returns 0x0000001F (0000ms, 0375ms total)
T194C 015:584 JLINK_ReadReg(R13 (SP))  returns 0x20000BA0 (0000ms, 0375ms total)
T194C 015:584 JLINK_ReadReg(R14)  returns 0x20000069 (0000ms, 0375ms total)
T194C 015:584 JLINK_ReadReg(R15 (PC))  returns 0x00000110 (0000ms, 0375ms total)
T194C 015:584 JLINK_ReadReg(XPSR)  returns 0x21000000 (0000ms, 0375ms total)
T194C 015:584 JLINK_ReadReg(MSP)  returns 0x20000BA0 (0000ms, 0375ms total)
T194C 015:584 JLINK_ReadReg(PSP)  returns 0x24C24814 (0000ms, 0375ms total)
T194C 015:584 JLINK_ReadReg(CFBP)  returns 0x00000000 (0000ms, 0375ms total)
T1990 015:584 JLINK_ReadMem (0x20000A3C, 0x0001 Bytes, ...) -- CPU_ReadMem(64 bytes @ 0x20000A00) -- Updating C cache (64 bytes @ 0x20000A00) -- Read from C cache (1 bytes @ 0x20000A3C) -- Data:  00  returns 0x00 (0002ms, 0377ms total)
T1990 015:586 JLINK_ReadMem (0x00000800, 0x0050 Bytes, ...) -- Unmirror addr 0x00000800 -- Read from flash cache (80 bytes @ 0x00000800) -- Data:  03 D0 D0 F8 00 45 0C 43 02 E0 D0 F8 00 45 8C 43 ...  returns 0x00 (0000ms, 0377ms total)
T1990 015:588 JLINK_ReadMem (0x0000010E, 0x0002 Bytes, ...) -- Unmirror addr 0x0000010E -- Read from flash cache (2 bytes @ 0x0000010E) -- Data:  62 B6  returns 0x00 (0000ms, 0377ms total)
T1990 015:588 JLINK_ReadMem (0x00000110, 0x003C Bytes, ...) -- Unmirror addr 0x00000110 -- Read from flash cache (60 bytes @ 0x00000110) -- Data:  70 47 EF F3 10 80 72 B6 70 47 EF F3 10 80 62 B6 ...  returns 0x00 (0000ms, 0377ms total)
T194C 016:941 JLINK_Step() -- Unmirror addr 0x00000110 -- Read from flash cache (2 bytes @ 0x00000110) -- Simulated  returns 0x00 (0002ms, 0379ms total)
T194C 016:943 JLINK_ReadReg(R15 (PC))  returns 0x20000068 (0000ms, 0379ms total)
T194C 016:943 JLINK_ReadReg(XPSR)  returns 0x21000000 (0000ms, 0379ms total)
T194C 016:943 JLINK_ReadMem (0x20000066, 0x0002 Bytes, ...) -- CPU_ReadMem(64 bytes @ 0x20000040) -- Updating C cache (64 bytes @ 0x20000040) -- Read from C cache (2 bytes @ 0x20000066) -- Data:  24 F8  returns 0x00 (0002ms, 0381ms total)
T194C 016:945 JLINK_ReadMem (0x20000068, 0x003C Bytes, ...) -- CPU_ReadMem(64 bytes @ 0x20000080) -- Updating C cache (64 bytes @ 0x20000080) -- Read from C cache (60 bytes @ 0x20000068) -- Data:  00 F0 74 F8 18 B1 00 F0 76 F8 00 F0 79 B8 4F F4 ...  returns 0x00 (0001ms, 0382ms total)
T194C 016:946 JLINK_Step() -- Read from C cache (2 bytes @ 0x20000068) -- Read from C cache (2 bytes @ 0x2000006A) -- Simulated  returns 0x00 (0000ms, 0382ms total)
T194C 016:946 JLINK_ReadReg(R15 (PC))  returns 0x20000154 (0000ms, 0382ms total)
T194C 016:946 JLINK_ReadReg(XPSR)  returns 0x21000000 (0001ms, 0383ms total)
T194C 016:947 JLINK_Step() -- CPU_ReadMem(64 bytes @ 0x20000140) -- Updating C cache (64 bytes @ 0x20000140) -- Read from C cache (2 bytes @ 0x20000154) -- Read from C cache (2 bytes @ 0x20000156) -- Not simulated -- Invalidate MA0 status -- CPU_WriteMem(4 bytes @ 0xE0002008)  returns 0x00 (0008ms, 0391ms total)
T194C 016:955 JLINK_ReadReg(R15 (PC))  returns 0x20000158 (0000ms, 0391ms total)
T194C 016:955 JLINK_ReadReg(XPSR)  returns 0x21000000 (0000ms, 0391ms total)
T194C 016:955 JLINK_Step() -- CPU_ReadMem(64 bytes @ 0x20000140) -- Updating C cache (64 bytes @ 0x20000140) -- Read from C cache (2 bytes @ 0x20000158) -- Read from C cache (2 bytes @ 0x2000015A) -- Not simulated  returns 0x00 (0006ms, 0397ms total)
T194C 016:961 JLINK_ReadReg(R15 (PC))  returns 0x2000015C (0001ms, 0398ms total)
T194C 016:962 JLINK_ReadReg(XPSR)  returns 0x21000000 (0000ms, 0398ms total)
T194C 016:962 JLINK_Step() -- CPU_ReadMem(64 bytes @ 0x20000140) -- Updating C cache (64 bytes @ 0x20000140) -- Read from C cache (2 bytes @ 0x2000015C) -- Simulated  returns 0x00 (0001ms, 0399ms total)
T194C 016:963 JLINK_ReadReg(R15 (PC))  returns 0x20000174 (0000ms, 0399ms total)
T194C 016:963 JLINK_ReadReg(XPSR)  returns 0x21000000 (0000ms, 0399ms total)
T194C 016:964 JLINK_ReadReg(R0)  returns 0x00000001 (0000ms, 0399ms total)
T194C 016:964 JLINK_ReadReg(R1)  returns 0x20000000 (0000ms, 0399ms total)
T194C 016:964 JLINK_ReadReg(R2)  returns 0x20000A58 (0000ms, 0399ms total)
T194C 016:964 JLINK_ReadReg(R3)  returns 0x00000000 (0000ms, 0399ms total)
T194C 016:964 JLINK_ReadReg(R4)  returns 0x0000B284 (0000ms, 0399ms total)
T194C 016:964 JLINK_ReadReg(R5)  returns 0x0000B284 (0000ms, 0399ms total)
T194C 016:964 JLINK_ReadReg(R6)  returns 0x200005EC (0000ms, 0399ms total)
T194C 016:964 JLINK_ReadReg(R7)  returns 0x20000161 (0000ms, 0399ms total)
T194C 016:964 JLINK_ReadReg(R8)  returns 0x20000A58 (0000ms, 0399ms total)
T194C 016:964 JLINK_ReadReg(R9)  returns 0x12065A02 (0000ms, 0399ms total)
T194C 016:964 JLINK_ReadReg(R10)  returns 0x04E22870 (0000ms, 0399ms total)
T194C 016:964 JLINK_ReadReg(R11)  returns 0x00000040 (0000ms, 0399ms total)
T194C 016:964 JLINK_ReadReg(R12)  returns 0x20000175 (0000ms, 0399ms total)
T194C 016:964 JLINK_ReadReg(R13 (SP))  returns 0x20000BA0 (0000ms, 0399ms total)
T194C 016:964 JLINK_ReadReg(R14)  returns 0x2000006D (0000ms, 0399ms total)
T194C 016:964 JLINK_ReadReg(R15 (PC))  returns 0x20000174 (0000ms, 0399ms total)
T194C 016:964 JLINK_ReadReg(XPSR)  returns 0x21000000 (0000ms, 0399ms total)
T194C 016:964 JLINK_ReadReg(MSP)  returns 0x20000BA0 (0000ms, 0399ms total)
T194C 016:964 JLINK_ReadReg(PSP)  returns 0x24C24814 (0000ms, 0399ms total)
T194C 016:964 JLINK_ReadReg(CFBP)  returns 0x00000000 (0000ms, 0399ms total)
T1990 016:964 JLINK_ReadMem (0x00000000, 0x0004 Bytes, ...) -- MA0 is in flash -- Unmirror addr 0x00000000 -- Read from flash cache (4 bytes @ 0x00000000) -- Data:  A0 0B 00 20  returns 0x00 (0001ms, 0400ms total)
T1990 016:965 JLINK_ReadMem (0x20000A3C, 0x0001 Bytes, ...) -- CPU_ReadMem(64 bytes @ 0x20000A00) -- Updating C cache (64 bytes @ 0x20000A00) -- Read from C cache (1 bytes @ 0x20000A3C) -- Data:  00  returns 0x00 (0001ms, 0401ms total)
T1990 016:966 JLINK_ReadMem (0x00000800, 0x0050 Bytes, ...) -- Unmirror addr 0x00000800 -- Read from flash cache (80 bytes @ 0x00000800) -- Data:  03 D0 D0 F8 00 45 0C 43 02 E0 D0 F8 00 45 8C 43 ...  returns 0x00 (0000ms, 0401ms total)
T1990 016:968 JLINK_ReadMem (0x20000074, 0x003C Bytes, ...) -- CPU_ReadMem(128 bytes @ 0x20000040) -- Updating C cache (128 bytes @ 0x20000040) -- Read from C cache (60 bytes @ 0x20000074) -- Data:  79 B8 4F F4 40 60 30 49 08 60 01 68 8D 46 40 68 ...  returns 0x00 (0002ms, 0403ms total)
T1990 016:970 JLINK_ReadMem (0x200000B0, 0x003C Bytes, ...) -- CPU_ReadMem(64 bytes @ 0x200000C0) -- Updating C cache (64 bytes @ 0x200000C0) -- Read from C cache (60 bytes @ 0x200000B0) -- Data:  EF F3 10 80 72 B6 00 22 00 23 4F F0 00 50 50 F8 ...  returns 0x00 (0002ms, 0405ms total)
T1990 016:972 JLINK_ReadMem (0x200000EC, 0x003C Bytes, ...) -- CPU_ReadMem(64 bytes @ 0x20000100) -- Updating C cache (64 bytes @ 0x20000100) -- Read from C cache (60 bytes @ 0x200000EC) -- Data:  04 3B 91 42 F9 DB 00 20 16 4A 41 F8 04 0B 91 42 ...  returns 0x00 (0002ms, 0407ms total)
T1990 016:974 JLINK_ReadMem (0x20000128, 0x003C Bytes, ...) -- Read from C cache (60 bytes @ 0x20000128) -- Data:  00 68 85 46 00 F0 1C B8 FE E7 FE E7 FE E7 01 38 ...  returns 0x00 (0000ms, 0407ms total)
T1990 016:974 JLINK_ReadMem (0x20000164, 0x003C Bytes, ...) -- CPU_ReadMem(64 bytes @ 0x20000180) -- Updating C cache (64 bytes @ 0x20000180) -- Read from C cache (60 bytes @ 0x20000164) -- Data:  00 0C 60 47 40 F2 FD 2C C2 F2 00 0C 60 47 00 00 ...  returns 0x00 (0001ms, 0408ms total)
T194C 019:615 JLINK_Step() -- Read from C cache (2 bytes @ 0x20000174) -- CPU_WriteMem(8 bytes @ 0x20000B98) -- Simulated  returns 0x00 (0003ms, 0411ms total)
T194C 019:618 JLINK_ReadReg(R15 (PC))  returns 0x20000176 (0000ms, 0411ms total)
T194C 019:618 JLINK_ReadReg(XPSR)  returns 0x21000000 (0000ms, 0411ms total)
T194C 019:618 JLINK_ReadReg(R0)  returns 0x00000001 (0000ms, 0411ms total)
T194C 019:618 JLINK_ReadReg(R1)  returns 0x20000000 (0000ms, 0411ms total)
T194C 019:618 JLINK_ReadReg(R2)  returns 0x20000A58 (0000ms, 0411ms total)
T194C 019:618 JLINK_ReadReg(R3)  returns 0x00000000 (0000ms, 0411ms total)
T194C 019:618 JLINK_ReadReg(R4)  returns 0x0000B284 (0000ms, 0411ms total)
T194C 019:618 JLINK_ReadReg(R5)  returns 0x0000B284 (0000ms, 0411ms total)
T194C 019:618 JLINK_ReadReg(R6)  returns 0x200005EC (0000ms, 0411ms total)
T194C 019:618 JLINK_ReadReg(R7)  returns 0x20000161 (0000ms, 0411ms total)
T194C 019:618 JLINK_ReadReg(R8)  returns 0x20000A58 (0000ms, 0411ms total)
T194C 019:618 JLINK_ReadReg(R9)  returns 0x12065A02 (0000ms, 0411ms total)
T194C 019:618 JLINK_ReadReg(R10)  returns 0x04E22870 (0000ms, 0411ms total)
T194C 019:618 JLINK_ReadReg(R11)  returns 0x00000040 (0000ms, 0411ms total)
T194C 019:618 JLINK_ReadReg(R12)  returns 0x20000175 (0000ms, 0411ms total)
T194C 019:618 JLINK_ReadReg(R13 (SP))  returns 0x20000B98 (0000ms, 0411ms total)
T194C 019:618 JLINK_ReadReg(R14)  returns 0x2000006D (0000ms, 0411ms total)
T194C 019:618 JLINK_ReadReg(R15 (PC))  returns 0x20000176 (0000ms, 0411ms total)
T194C 019:618 JLINK_ReadReg(XPSR)  returns 0x21000000 (0000ms, 0411ms total)
T194C 019:618 JLINK_ReadReg(MSP)  returns 0x20000B98 (0000ms, 0411ms total)
T194C 019:618 JLINK_ReadReg(PSP)  returns 0x24C24814 (0000ms, 0411ms total)
T194C 019:618 JLINK_ReadReg(CFBP)  returns 0x00000000 (0000ms, 0411ms total)
T1990 019:621 JLINK_ReadMem (0x20000B9C, 0x0004 Bytes, ...) -- CPU_ReadMem(64 bytes @ 0x20000B80) -- Updating C cache (64 bytes @ 0x20000B80) -- Read from C cache (4 bytes @ 0x20000B9C) -- Data:  6D 00 00 20  returns 0x00 (0002ms, 0413ms total)
T1990 019:623 JLINK_ReadMem (0x20000B98, 0x0004 Bytes, ...) -- Read from C cache (4 bytes @ 0x20000B98) -- Data:  84 B2 00 00  returns 0x00 (0000ms, 0413ms total)
T1990 019:623 JLINK_ReadMem (0x00000000, 0x0004 Bytes, ...) -- Unmirror addr 0x00000000 -- Read from flash cache (4 bytes @ 0x00000000) -- Data:  A0 0B 00 20  returns 0x00 (0000ms, 0413ms total)
T1990 019:623 JLINK_ReadMem (0x20000A3C, 0x0001 Bytes, ...) -- Read from C cache (1 bytes @ 0x20000A3C) -- Data:  00  returns 0x00 (0000ms, 0413ms total)
T1990 019:623 JLINK_ReadMem (0x00000800, 0x0050 Bytes, ...) -- Unmirror addr 0x00000800 -- Read from flash cache (80 bytes @ 0x00000800) -- Data:  03 D0 D0 F8 00 45 0C 43 02 E0 D0 F8 00 45 8C 43 ...  returns 0x00 (0000ms, 0413ms total)
T1990 019:625 JLINK_ReadMem (0x20000174, 0x003C Bytes, ...) -- Read from C cache (60 bytes @ 0x20000174) -- Data:  10 B5 2A 4C 20 68 40 F0 04 00 20 60 C8 20 00 F0 ...  returns 0x00 (0000ms, 0413ms total)
T194C 020:117 JLINK_Step() -- Read from C cache (2 bytes @ 0x20000176) -- CPU_ReadMem(64 bytes @ 0x20000200) -- Updating C cache (64 bytes @ 0x20000200) -- Read from C cache (4 bytes @ 0x20000220) -- Simulated  returns 0x00 (0003ms, 0416ms total)
T194C 020:120 JLINK_ReadReg(R15 (PC))  returns 0x20000178 (0000ms, 0416ms total)
T194C 020:120 JLINK_ReadReg(XPSR)  returns 0x21000000 (0000ms, 0416ms total)
T194C 020:120 JLINK_Step() -- Read from C cache (2 bytes @ 0x20000178) -- CPU_ReadMem(4 bytes @ 0x400FE108) -- Simulated  returns 0x00 (0001ms, 0417ms total)
T194C 020:121 JLINK_ReadReg(R15 (PC))  returns 0x2000017A (0000ms, 0417ms total)
T194C 020:121 JLINK_ReadReg(XPSR)  returns 0x21000000 (0000ms, 0417ms total)
T194C 020:121 JLINK_Step() -- Read from C cache (2 bytes @ 0x2000017A) -- Read from C cache (2 bytes @ 0x2000017C) -- Simulated  returns 0x00 (0000ms, 0417ms total)
T194C 020:121 JLINK_ReadReg(R15 (PC))  returns 0x2000017E (0000ms, 0417ms total)
T194C 020:121 JLINK_ReadReg(XPSR)  returns 0x21000000 (0000ms, 0417ms total)
T194C 020:121 JLINK_Step() -- Read from C cache (2 bytes @ 0x2000017E) -- CPU_WriteMem(4 bytes @ 0x400FE108) -- Invalidate MA0 status -- Simulated  returns 0x00 (0001ms, 0418ms total)
T194C 020:122 JLINK_ReadReg(R15 (PC))  returns 0x20000180 (0000ms, 0418ms total)
T194C 020:122 JLINK_ReadReg(XPSR)  returns 0x21000000 (0000ms, 0418ms total)
T194C 020:122 JLINK_ReadReg(R0)  returns 0x00000004 (0000ms, 0418ms total)
T194C 020:122 JLINK_ReadReg(R1)  returns 0x20000000 (0000ms, 0418ms total)
T194C 020:122 JLINK_ReadReg(R2)  returns 0x20000A58 (0000ms, 0418ms total)
T194C 020:122 JLINK_ReadReg(R3)  returns 0x00000000 (0000ms, 0418ms total)
T194C 020:122 JLINK_ReadReg(R4)  returns 0x400FE108 (0000ms, 0418ms total)
T194C 020:122 JLINK_ReadReg(R5)  returns 0x0000B284 (0001ms, 0419ms total)
T194C 020:123 JLINK_ReadReg(R6)  returns 0x200005EC (0000ms, 0419ms total)
T194C 020:123 JLINK_ReadReg(R7)  returns 0x20000161 (0000ms, 0419ms total)
T194C 020:123 JLINK_ReadReg(R8)  returns 0x20000A58 (0000ms, 0419ms total)
T194C 020:123 JLINK_ReadReg(R9)  returns 0x12065A02 (0000ms, 0419ms total)
T194C 020:123 JLINK_ReadReg(R10)  returns 0x04E22870 (0000ms, 0419ms total)
T194C 020:123 JLINK_ReadReg(R11)  returns 0x00000040 (0000ms, 0419ms total)
T194C 020:123 JLINK_ReadReg(R12)  returns 0x20000175 (0000ms, 0419ms total)
T194C 020:123 JLINK_ReadReg(R13 (SP))  returns 0x20000B98 (0000ms, 0419ms total)
T194C 020:123 JLINK_ReadReg(R14)  returns 0x2000006D (0000ms, 0419ms total)
T194C 020:123 JLINK_ReadReg(R15 (PC))  returns 0x20000180 (0000ms, 0419ms total)
T194C 020:123 JLINK_ReadReg(XPSR)  returns 0x21000000 (0000ms, 0419ms total)
T194C 020:123 JLINK_ReadReg(MSP)  returns 0x20000B98 (0000ms, 0419ms total)
T194C 020:123 JLINK_ReadReg(PSP)  returns 0x24C24814 (0000ms, 0419ms total)
T194C 020:123 JLINK_ReadReg(CFBP)  returns 0x00000000 (0000ms, 0419ms total)
T1990 020:124 JLINK_ReadMem (0x20000B9C, 0x0004 Bytes, ...) -- Read from C cache (4 bytes @ 0x20000B9C) -- Data:  6D 00 00 20  returns 0x00 (0000ms, 0419ms total)
T1990 020:124 JLINK_ReadMem (0x20000B98, 0x0004 Bytes, ...) -- Read from C cache (4 bytes @ 0x20000B98) -- Data:  84 B2 00 00  returns 0x00 (0000ms, 0419ms total)
T1990 020:124 JLINK_ReadMem (0x00000000, 0x0004 Bytes, ...) -- MA0 is in flash -- Unmirror addr 0x00000000 -- Read from flash cache (4 bytes @ 0x00000000) -- Data:  A0 0B 00 20  returns 0x00 (0000ms, 0419ms total)
T1990 020:124 JLINK_ReadMem (0x20000A3C, 0x0001 Bytes, ...) -- Read from C cache (1 bytes @ 0x20000A3C) -- Data:  00  returns 0x00 (0000ms, 0419ms total)
T1990 020:124 JLINK_ReadMem (0x00000800, 0x0050 Bytes, ...) -- Unmirror addr 0x00000800 -- Read from flash cache (80 bytes @ 0x00000800) -- Data:  03 D0 D0 F8 00 45 0C 43 02 E0 D0 F8 00 45 8C 43 ...  returns 0x00 (0000ms, 0419ms total)
T1990 020:125 JLINK_ReadMem (0x2000017A, 0x0002 Bytes, ...) -- Read from C cache (2 bytes @ 0x2000017A) -- Data:  40 F0  returns 0x00 (0000ms, 0419ms total)
T1990 020:125 JLINK_ReadMem (0x2000017C, 0x003C Bytes, ...) -- Read from C cache (60 bytes @ 0x2000017C) -- Data:  04 00 20 60 C8 20 00 F0 43 FC 20 68 40 F0 40 00 ...  returns 0x00 (0000ms, 0419ms total)
T194C 020:389 JLINK_Step() -- Read from C cache (2 bytes @ 0x20000180) -- Simulated  returns 0x00 (0000ms, 0419ms total)
T194C 020:389 JLINK_ReadReg(R15 (PC))  returns 0x20000182 (0000ms, 0419ms total)
T194C 020:389 JLINK_ReadReg(XPSR)  returns 0x21000000 (0000ms, 0419ms total)
T194C 020:389 JLINK_SetBPEx(Addr = 0x20000186, Type = 0xF2) -- CPU_ReadMem(2 bytes @ 0x20000186)  returns 0x00000005 (0001ms, 0420ms total)
T194C 020:390 JLINK_SetBPEx(Addr = 0x00000110, Type = 0xF2) -- Unmirror addr 0x00000110  returns 0x00000006 (0000ms, 0420ms total)
T194C 020:390 JLINK_Go() -- CPU_WriteMem(2 bytes @ 0x20000186) -- Invalidate MA0 status -- MA0 is in flash -- Unmirror addr 0x00000110 -- Read from C cache (2 bytes @ 0x20000182) -- Read from C cache (2 bytes @ 0x20000184) -- Simulated -- Unmirror addr 0x00000110 -- Read from C cache (2 bytes @ 0x20000A0C) -- Read from C cache (2 bytes @ 0x20000A0E) -- Not simulated -- Read from flash cache (1024 bytes @ 0x00000000) -- Programming range 0x00000000 - 0x000003FF (  1 Sector, 1024 Bytes)
 -- Calculating RAM usage -- RAM usage = 5836 Bytes -- Preserving registers -- Preparing memory -- Determining CPU clock frequency -- CPU clock frequency: 7995 kHz -- CPU frequency = 7995 kHz -- Preparing target -- Preserving target memory used for RAMCode and buffer -- Downloading RAMCode -- Preparing RAMCode -- Restore RAMCode -- Restore content of target memory -- Restore target -- Restore memory -- Restore content of registers -- Invalidate MA0 status (0273ms, 0693ms total)
T194C 020:763 JLINK_IsHalted() -- CPU_ReadMem(2 bytes @ 0x20000186)  returns TRUE (0005ms, 0698ms total)
T194C 020:768 JLINK_Halt()  returns 0x00 (0000ms, 0693ms total)
T194C 020:768 JLINK_IsHalted()  returns TRUE (0000ms, 0693ms total)
T194C 020:768 JLINK_IsHalted()  returns TRUE (0000ms, 0693ms total)
T194C 020:768 JLINK_IsHalted()  returns TRUE (0000ms, 0693ms total)
T194C 020:768 JLINK_ReadReg(R15 (PC))  returns 0x20000186 (0000ms, 0693ms total)
T194C 020:768 JLINK_ReadReg(XPSR)  returns 0x61000000 (0000ms, 0693ms total)
T194C 020:768 JLINK_ClrBPEx(BPHandle = 0x00000005)  returns 0x00 (0001ms, 0694ms total)
T194C 020:769 JLINK_ClrBPEx(BPHandle = 0x00000006)  returns 0x00 (0000ms, 0694ms total)
T194C 020:769 JLINK_ReadMemU32(0xE000ED30, 0x0001 Items, ...) -- CPU_ReadMem(4 bytes @ 0xE000ED30) -- Data:  03 00 00 00  returns 0x01 (0001ms, 0695ms total)
T194C 020:770 JLINK_ReadMemU32(0xE0001028, 0x0001 Items, ...) -- CPU_ReadMem(4 bytes @ 0xE0001028) -- Data:  00 00 00 00  returns 0x01 (0001ms, 0696ms total)
T194C 020:771 JLINK_ReadMemU32(0xE0001038, 0x0001 Items, ...) -- CPU_ReadMem(4 bytes @ 0xE0001038) -- Data:  00 02 00 00  returns 0x01 (0001ms, 0697ms total)
T194C 020:772 JLINK_ReadMemU32(0xE0001048, 0x0001 Items, ...) -- CPU_ReadMem(4 bytes @ 0xE0001048) -- Data:  00 00 00 00  returns 0x01 (0001ms, 0698ms total)
T194C 020:773 JLINK_ReadMemU32(0xE0001058, 0x0001 Items, ...) -- CPU_ReadMem(4 bytes @ 0xE0001058) -- Data:  00 00 00 00  returns 0x01 (0001ms, 0699ms total)
T194C 020:774 JLINK_ReadReg(R0)  returns 0x00000000 (0000ms, 0699ms total)
T194C 020:774 JLINK_ReadReg(R1)  returns 0x20000000 (0000ms, 0699ms total)
T194C 020:774 JLINK_ReadReg(R2)  returns 0x20000A58 (0000ms, 0699ms total)
T194C 020:774 JLINK_ReadReg(R3)  returns 0x00000000 (0000ms, 0699ms total)
T194C 020:774 JLINK_ReadReg(R4)  returns 0x400FE108 (0000ms, 0699ms total)
T194C 020:774 JLINK_ReadReg(R5)  returns 0x0000B284 (0000ms, 0699ms total)
T194C 020:774 JLINK_ReadReg(R6)  returns 0x200005EC (0000ms, 0699ms total)
